
T0CBC 000:318 SEGGER J-Link V4.20p Log File (0000ms, 0316ms total)
T0CBC 000:318 DLL Compiled: Nov 19 2010 15:55:07 (0000ms, 0316ms total)
T0CBC 000:318 Logging started @ 2014-12-25 19:03 (0000ms, 0316ms total)
T0CBC 000:318 JLINK_SetWarnOutHandler(...) (0000ms, 0316ms total)
T0CBC 000:318 JLINK_OpenEx(...)
Firmware: J-Link ARM V8 compiled Nov 19 2010 11:55:23
Hardware: V8.00
S/N: 270676280
Feature(s): RDI,FlashDL,FlashBP,JFlash,GDBFULL  returns O.K. (0067ms, 0316ms total)
T0CBC 000:385 JLINK_SetErrorOutHandler(...) (0000ms, 0383ms total)
T0CBC 000:386 JLINK_ExecCommand("Device = STM32F107VC", ...)
                JLINK_ExecCommand("map ram 0x20000000 - 0x20004FFF", ...)  returns 0x00 (0000ms, 0000ms total)
                JLINK_AddMirrorAreaEx(Addr = 0x00000000, Size = 0x00000000) (0000ms, 0000ms total)
                returns 0x00 (0001ms, 0383ms total)
T0CBC 000:390 JLINK_ExecCommand("ProjectFile = "E:\me\传感器网络实验\毕业论文试验\AAAA完整最终演示\TBC\MDK-ARM\JLinkSettings.ini"", ...)  returns 0x00 (0000ms, 0384ms total)
T0CBC 000:392 JLINK_ExecCommand("DisableConnectionTimeout", ...)  returns 0x00 (0000ms, 0384ms total)
T0CBC 000:392 JLINK_TIF_Select(JLINKARM_TIF_JTAG)  returns 0x00 (0000ms, 0384ms total)
T0CBC 000:392 JLINK_SetSpeed(2000) (0001ms, 0384ms total)
T0CBC 000:395 JLINK_GetHardwareVersion()  returns 0x13880 (0000ms, 0385ms total)
T0CBC 000:395 JLINK_GetDLLVersion()  returns 42016 (0000ms, 0385ms total)
T0CBC 000:395 JLINK_GetFirmwareString(...) (0000ms, 0385ms total)
T0CBC 000:395 JLINK_GetDLLVersion()  returns 42016 (0000ms, 0385ms total)
T0CBC 000:395 JLINK_GetCompileDateTime() (0000ms, 0385ms total)
T0CBC 000:395 JLINK_GetFirmwareString(...) (0000ms, 0385ms total)
T0CBC 000:395 JLINK_GetHardwareVersion()  returns 0x13880 (0000ms, 0385ms total)
T0CBC 000:395 JLINK_Reset() >0x2F8 JTAG>TotalIRLen = 9, IRPrint = 0x0011 >0x30 JTAG> >0x210 JTAG> >0x118 JTAG> >0xD8 JTAG> >0x198 JTAG> >0x38 JTAG> >0x118 JTAG> >0xD8 JTAG> >0x2F0 JTAG> >0x2F0 JTAG> >0x198 JTAG> >0x198 JTAG>Found Cortex-M3 r1p1, Little endian. >0xD8 JTAG> >0x240 JTAG> >0x198 JTAG> >0x198 JTAG>TPIU fitted. >0x198 JTAG>ETM fitted. >0x198 JTAG> >0x198 JTAG>  FPUnit: 6 code (BP) slots and 2 literal slots >0x198 JTAG> >0x250 JTAG> >0x240 JTAG> >0x280 JTAG> >0x198 JTAG> >0x198 JTAG>
 >0x240 JTAG> >0x240 JTAG> >0x198 JTAG> >0x198 JTAG> >0x17A8 JTAG> >0x240 JTAG> >0x198 JTAG> >0x17A8 JTAG> >0x198 JTAG> -- CPU_WriteMem(4 bytes @ 0xE000EDFC) -- CPU_WriteMem(4 bytes @ 0xE0001028) -- CPU_WriteMem(4 bytes @ 0xE0001038) -- CPU_WriteMem(4 bytes @ 0xE0001048) -- CPU_WriteMem(4 bytes @ 0xE0001058) (0066ms, 0385ms total)
T0CBC 000:461 JLINK_GetIdData(...) ScanLen=9 NumDevices=2 aId[0]=0x3BA00477 aIrRead[0]=0 aScanLen[0]=0 aScanRead[0]=0 (0000ms, 0451ms total)
T0CBC 000:461 JLINK_JTAG_GetDeviceID(DeviceIndex = 0)  returns 0x3BA00477 (0000ms, 0451ms total)
T0CBC 000:461 JLINK_JTAG_GetDeviceInfo(DeviceIndex = 0)  returns 0x00 (0000ms, 0451ms total)
T0CBC 000:461 JLINK_JTAG_GetDeviceID(DeviceIndex = 1)  returns 0x6418041 (0000ms, 0451ms total)
T0CBC 000:461 JLINK_JTAG_GetDeviceInfo(DeviceIndex = 1)  returns 0x00 (0000ms, 0451ms total)
T0CBC 000:461 JLINK_GetDebugInfo(0x100) -- Value=0xE00FF003  returns 0x00 (0000ms, 0451ms total)
T0CBC 000:461 JLINK_ReadMem (0xE00FF000, 0x0018 Bytes, ...) -- CPU_ReadMem(24 bytes @ 0xE00FF000) -- Data:  03 F0 F0 FF 03 20 F0 FF 03 30 F0 FF 03 10 F0 FF ...  returns 0x00 (0001ms, 0451ms total)
T0CBC 000:462 JLINK_ReadMemU32(0xE000ED00, 0x0001 Items, ...) -- CPU_ReadMem(4 bytes @ 0xE000ED00) -- Data:  31 C2 1F 41  returns 0x01 (0001ms, 0452ms total)
T0CBC 000:464 JLINK_Halt()  returns 0x00 (0000ms, 0453ms total)
T0CBC 000:464 JLINK_IsHalted()  returns TRUE (0000ms, 0453ms total)
T0CBC 000:464 JLINK_ReadMemU32(0xE000EDF0, 0x0001 Items, ...) -- CPU_ReadMem(4 bytes @ 0xE000EDF0) -- Data:  03 00 03 00  returns 0x01 (0000ms, 0453ms total)
T0CBC 000:464 JLINK_WriteU32(0xE000EDF0, 0xA05F0003) -- CPU_WriteMem(4 bytes @ 0xE000EDF0)  returns 0x00 (0001ms, 0453ms total)
T0CBC 000:465 JLINK_WriteU32(0xE000EDFC, 0x01000000) -- CPU_WriteMem(4 bytes @ 0xE000EDFC)  returns 0x00 (0000ms, 0454ms total)
T0CBC 000:465 JLINK_ReadMemU32(0xE0002000, 0x0001 Items, ...) -- CPU_ReadMem(4 bytes @ 0xE0002000) -- Data:  60 02 00 00  returns 0x01 (0001ms, 0454ms total)
T0CBC 000:466 JLINK_ReadMemU32(0xE0001000, 0x0001 Items, ...) -- CPU_ReadMem(4 bytes @ 0xE0001000) -- Data:  01 00 00 40  returns 0x01 (0001ms, 0455ms total)
T0CBC 000:468 JLINK_GetHWStatus(...)  returns 0x00 (0000ms, 0456ms total)
T0CBC 000:468 JLINK_GetNumBPUnits(Type = 0xFFFFFF00)  returns 0x06 (0000ms, 0456ms total)
T0CBC 000:468 JLINK_GetNumBPUnits(Type = 0xF0)  returns 0x800 (0001ms, 0456ms total)
T0CBC 000:469 JLINK_GetNumWPUnits()  returns 0x00 (0000ms, 0457ms total)
T0CBC 000:469 JLINK_GetSpeed()  returns 0x7D0 (0000ms, 0457ms total)
T0CBC 000:469 JLINK_ReadMemU32(0xE000E004, 0x0001 Items, ...) -- CPU_ReadMem(4 bytes @ 0xE000E004) -- Data:  02 00 00 00  returns 0x01 (0000ms, 0457ms total)
T0CBC 000:469 JLINK_WriteMem(0xE0001000, 0x001C Bytes, ...) -- Data:  01 00 00 00 00 00 00 00 00 00 00 00 00 00 00 00 ... -- CPU_WriteMem(28 bytes @ 0xE0001000)  returns 0x1C (0001ms, 0457ms total)
T0CBC 000:470 JLINK_ReadMem (0xE0001000, 0x001C Bytes, ...) -- CPU_ReadMem(28 bytes @ 0xE0001000) -- Data:  01 00 00 40 00 00 00 00 00 00 00 00 00 00 00 00 ...  returns 0x00 (0001ms, 0458ms total)
T0CBC 000:472 JLINK_ReadReg(R15)  returns 0x08000164 (0000ms, 0459ms total)
T0CBC 000:472 JLINK_ReadReg(XPSR)  returns 0x01000000 (0000ms, 0459ms total)
T0CBC 002:552 JLINK_SetResetType(JLINKARM_RESET_TYPE_NORMAL)  returns JLINKARM_RESET_TYPE_NORMAL (0000ms, 0459ms total)
T0CBC 002:552 JLINK_Reset() >0x2F8 JTAG>TotalIRLen = 9, IRPrint = 0x0011 >0x30 JTAG> >0x210 JTAG> >0x118 JTAG> >0xD8 JTAG> >0x198 JTAG> >0x38 JTAG> >0x118 JTAG> >0xD8 JTAG> >0x2F0 JTAG> >0x2F0 JTAG> >0x198 JTAG> >0x198 JTAG>Found Cortex-M3 r1p1, Little endian. >0xD8 JTAG> >0x240 JTAG> >0x198 JTAG> >0x198 JTAG>TPIU fitted. >0x198 JTAG>ETM fitted. >0x198 JTAG> >0x198 JTAG>  FPUnit: 6 code (BP) slots and 2 literal slots >0x198 JTAG> >0x250 JTAG> >0x240 JTAG> >0x280 JTAG> >0x198 JTAG> >0x198 JTAG>
 >0x240 JTAG> >0x240 JTAG> >0x198 JTAG> >0x198 JTAG> >0x240 JTAG> >0x198 JTAG> >0x17A8 JTAG> >0x198 JTAG> -- CPU_WriteMem(4 bytes @ 0xE000EDFC) -- CPU_WriteMem(4 bytes @ 0xE0001028) -- CPU_WriteMem(4 bytes @ 0xE0001038) -- CPU_WriteMem(4 bytes @ 0xE0001048) -- CPU_WriteMem(4 bytes @ 0xE0001058) (0057ms, 0459ms total)
T0CBC 002:609 JLINK_ReadReg(R15)  returns 0x08000164 (0001ms, 0516ms total)
T0CBC 002:610 JLINK_ReadReg(XPSR)  returns 0x01000000 (0000ms, 0517ms total)
T0CBC 002:610 JLINK_ReadReg(R0)  returns 0x00000000 (0000ms, 0517ms total)
T0CBC 002:610 JLINK_ReadReg(R1)  returns 0x00000003 (0000ms, 0517ms total)
T0CBC 002:610 JLINK_ReadReg(R2)  returns 0x40022000 (0000ms, 0517ms total)
T0CBC 002:610 JLINK_ReadReg(R3)  returns 0x04C11DB7 (0000ms, 0517ms total)
T0CBC 002:610 JLINK_ReadReg(R4)  returns 0x00000000 (0000ms, 0517ms total)
T0CBC 002:610 JLINK_ReadReg(R5)  returns 0x00000000 (0000ms, 0517ms total)
T0CBC 002:610 JLINK_ReadReg(R6)  returns 0x00000000 (0000ms, 0517ms total)
T0CBC 002:610 JLINK_ReadReg(R7)  returns 0x00000000 (0000ms, 0517ms total)
T0CBC 002:610 JLINK_ReadReg(R8)  returns 0x00000000 (0000ms, 0517ms total)
T0CBC 002:610 JLINK_ReadReg(R9)  returns 0x20000160 (0000ms, 0517ms total)
T0CBC 002:610 JLINK_ReadReg(R10)  returns 0x00000000 (0000ms, 0517ms total)
T0CBC 002:610 JLINK_ReadReg(R11)  returns 0x00000000 (0000ms, 0517ms total)
T0CBC 002:610 JLINK_ReadReg(R12)  returns 0x00000000 (0000ms, 0517ms total)
T0CBC 002:610 JLINK_ReadReg(R13)  returns 0x2000F9D8 (0000ms, 0517ms total)
T0CBC 002:610 JLINK_ReadReg(R14)  returns 0xFFFFFFFF (0000ms, 0517ms total)
T0CBC 002:610 JLINK_ReadReg(R15)  returns 0x08000164 (0000ms, 0517ms total)
T0CBC 002:610 JLINK_ReadReg(XPSR)  returns 0x01000000 (0000ms, 0517ms total)
T0CBC 002:610 JLINK_ReadReg(MSP)  returns 0x2000F9D8 (0000ms, 0517ms total)
T0CBC 002:610 JLINK_ReadReg(PSP)  returns 0x20000800 (0000ms, 0517ms total)
T0CBC 002:610 JLINK_ReadReg(CFBP)  returns 0x00000000 (0000ms, 0517ms total)
T0CBC 002:610 JLINK_WriteReg(R0, 0x00000000)  returns 0x00 (0000ms, 0517ms total)
T0CBC 002:610 JLINK_WriteReg(R1, 0x00000003)  returns 0x00 (0000ms, 0517ms total)
T0CBC 002:610 JLINK_WriteReg(R2, 0x40022000)  returns 0x00 (0000ms, 0517ms total)
T0CBC 002:610 JLINK_WriteReg(R3, 0x04C11DB7)  returns 0x00 (0000ms, 0517ms total)
T0CBC 002:610 JLINK_WriteReg(R4, 0x00000000)  returns 0x00 (0000ms, 0517ms total)
T0CBC 002:610 JLINK_WriteReg(R5, 0x00000000)  returns 0x00 (0000ms, 0517ms total)
T0CBC 002:610 JLINK_WriteReg(R6, 0x00000000)  returns 0x00 (0000ms, 0517ms total)
T0CBC 002:610 JLINK_WriteReg(R7, 0x00000000)  returns 0x00 (0000ms, 0517ms total)
T0CBC 002:610 JLINK_WriteReg(R8, 0x00000000)  returns 0x00 (0000ms, 0517ms total)
T0CBC 002:610 JLINK_WriteReg(R9, 0x20000160)  returns 0x00 (0000ms, 0517ms total)
T0CBC 002:610 JLINK_WriteReg(R10, 0x00000000)  returns 0x00 (0000ms, 0517ms total)
T0CBC 002:610 JLINK_WriteReg(R11, 0x00000000)  returns 0x00 (0000ms, 0517ms total)
T0CBC 002:610 JLINK_WriteReg(R12, 0x00000000)  returns 0x00 (0000ms, 0517ms total)
T0CBC 002:610 JLINK_WriteReg(R13, 0x2000F9D8)  returns 0x00 (0000ms, 0517ms total)
T0CBC 002:610 JLINK_WriteReg(R14, 0xFFFFFFFF)  returns 0x00 (0000ms, 0517ms total)
T0CBC 002:610 JLINK_WriteReg(R15, 0x08000164)  returns 0x00 (0000ms, 0517ms total)
T0CBC 002:610 JLINK_WriteReg(XPSR, 0x01000000)  returns 0x00 (0000ms, 0517ms total)
T0CBC 002:610 JLINK_WriteReg(MSP, 0x2000F9D8)  returns 0x00 (0001ms, 0517ms total)
T0CBC 002:611 JLINK_WriteReg(PSP, 0x20000800)  returns 0x00 (0000ms, 0518ms total)
T0CBC 002:611 JLINK_WriteReg(CFBP, 0x00000000)  returns 0x00 (0000ms, 0518ms total)
T0CBC 002:611 JLINK_ReadReg(R0)  returns 0x00000000 (0000ms, 0518ms total)
T0CBC 002:611 JLINK_ReadReg(R1)  returns 0x00000003 (0000ms, 0518ms total)
T0CBC 002:611 JLINK_ReadReg(R2)  returns 0x40022000 (0000ms, 0518ms total)
T0CBC 002:611 JLINK_ReadReg(R3)  returns 0x04C11DB7 (0000ms, 0518ms total)
T0CBC 002:611 JLINK_ReadReg(R4)  returns 0x00000000 (0000ms, 0518ms total)
T0CBC 002:611 JLINK_ReadReg(R5)  returns 0x00000000 (0000ms, 0518ms total)
T0CBC 002:611 JLINK_ReadReg(R6)  returns 0x00000000 (0000ms, 0518ms total)
T0CBC 002:611 JLINK_ReadReg(R7)  returns 0x00000000 (0000ms, 0518ms total)
T0CBC 002:611 JLINK_ReadReg(R8)  returns 0x00000000 (0000ms, 0518ms total)
T0CBC 002:611 JLINK_ReadReg(R9)  returns 0x20000160 (0000ms, 0518ms total)
T0CBC 002:611 JLINK_ReadReg(R10)  returns 0x00000000 (0000ms, 0518ms total)
T0CBC 002:611 JLINK_ReadReg(R11)  returns 0x00000000 (0000ms, 0518ms total)
T0CBC 002:611 JLINK_ReadReg(R12)  returns 0x00000000 (0000ms, 0518ms total)
T0CBC 002:611 JLINK_ReadReg(R13)  returns 0x2000F9D8 (0000ms, 0518ms total)
T0CBC 002:611 JLINK_ReadReg(R14)  returns 0xFFFFFFFF (0000ms, 0518ms total)
T0CBC 002:611 JLINK_ReadReg(R15)  returns 0x08000164 (0000ms, 0518ms total)
T0CBC 002:611 JLINK_ReadReg(XPSR)  returns 0x01000000 (0000ms, 0518ms total)
T0CBC 002:611 JLINK_ReadReg(MSP)  returns 0x2000F9D8 (0000ms, 0518ms total)
T0CBC 002:611 JLINK_ReadReg(PSP)  returns 0x20000800 (0000ms, 0518ms total)
T0CBC 002:611 JLINK_ReadReg(CFBP)  returns 0x00000000 (0000ms, 0518ms total)
T0CBC 002:611 JLINK_ReadMemU32(0xE0001004, 0x0001 Items, ...) -- CPU_ReadMem(4 bytes @ 0xE0001004) -- Data:  00 00 00 00  returns 0x01 (0001ms, 0518ms total)
T0CBC 002:612 JLINK_ReadMem (0x08000164, 0x003C Bytes, ...) -- CPU_ReadMem(128 bytes @ 0x08000140) -- Updating C cache (128 bytes @ 0x08000140) -- Read from C cache (60 bytes @ 0x08000164) -- Data:  06 48 80 47 06 48 00 47 FE E7 FE E7 FE E7 FE E7 ...  returns 0x00 (0002ms, 0519ms total)
T0CBC 003:036 JLINK_ReadMem (0x00000000, 0x0093 Bytes, ...)
                JLINK_ReadMemHW(0x00000000, 0x0004 Bytes, ...) -- CPU_ReadMem(4 bytes @ 0x00000000) -- Data:  D8 F9 00 20  returns 0x00 (0002ms, 0000ms total)
                JLINK_ReadMemHW(0x08000000, 0x0004 Bytes, ...) -- CPU_ReadMem(4 bytes @ 0x08000000) -- Data:  D8 F9 00 20  returns 0x00 (0001ms, 0002ms total)
                JLINK_WriteMemHW(0x00000000, 0x0004 Bytes, ...) -- Data:  09 00 01 00 -- CPU_WriteMem(4 bytes @ 0x00000000)  returns 0x04 (0001ms, 0003ms total)
                JLINK_ReadMemHW(0x00000000, 0x0004 Bytes, ...) -- CPU_ReadMem(4 bytes @ 0x00000000) -- Data:  00 00 00 00  returns 0x01 (0002ms, 0004ms total)
                JLINK_WriteMemHW(0x00000000, 0x0004 Bytes, ...) -- Data:  D8 F9 00 20 -- CPU_WriteMem(4 bytes @ 0x00000000)  returns 0x04 (0001ms, 0006ms total)
               -- CPU_ReadMem(4 bytes @ 0x00000000) -- CPU_WriteMem(4 bytes @ 0x00000000) -- CPU_ReadMem(4 bytes @ 0x00000000) -- CPU_ReadMem(4 bytes @ 0x08000000) -- MA0 is not in valid memory -- CPU_ReadMem(192 bytes @ 0x00000000) -- Updating CM cache (192 bytes @ 0x00000000) -- Read from CM cache (147 bytes @ 0x00000000) -- Data:  D8 F9 00 20 65 01 00 08 4D 13 00 08 8D 12 00 08 ...  returns 0x00 (0014ms, 0521ms total)
T0CBC 003:546 JLINK_ReadMem (0x00000000, 0x01C0 Bytes, ...) -- CPU_ReadMem(256 bytes @ 0x000000C0) -- Updating CM cache (256 bytes @ 0x000000C0) -- Read from CM cache (448 bytes @ 0x00000000) -- Data:  D8 F9 00 20 65 01 00 08 4D 13 00 08 8D 12 00 08 ...  returns 0x00 (0002ms, 0535ms total)
T0E30 003:549 JLINK_SetBPEx(Addr = 0x080060F0, Type = 0xFFFFFFF2)  returns 0x00000001 (0000ms, 0537ms total)
T0E30 003:549 JLINK_Go() -- CPU_WriteMem(4 bytes @ 0xE0002000) -- CPU_WriteMem(4 bytes @ 0xE0002008) -- CPU_WriteMem(4 bytes @ 0xE000200C) -- CPU_WriteMem(4 bytes @ 0xE0002010) -- CPU_WriteMem(4 bytes @ 0xE0002014) -- CPU_WriteMem(4 bytes @ 0xE0002018) -- CPU_WriteMem(4 bytes @ 0xE000201C) -- Invalidate MA0 status (0009ms, 0537ms total)
T0E30 003:659 JLINK_IsHalted()  returns TRUE (0009ms, 0546ms total)
T0E30 003:668 JLINK_Halt()  returns 0x00 (0000ms, 0546ms total)
T0E30 003:668 JLINK_IsHalted()  returns TRUE (0000ms, 0546ms total)
T0E30 003:668 JLINK_IsHalted()  returns TRUE (0000ms, 0546ms total)
T0E30 003:668 JLINK_IsHalted()  returns TRUE (0000ms, 0546ms total)
T0E30 003:668 JLINK_ReadReg(R15)  returns 0x080060F0 (0000ms, 0546ms total)
T0E30 003:668 JLINK_ReadReg(XPSR)  returns 0x61000000 (0000ms, 0546ms total)
T0E30 003:668 JLINK_ClrBPEx(BPHandle = 0x00000001)  returns 0x00 (0000ms, 0546ms total)
T0E30 003:668 JLINK_ReadMemU32(0xE000ED30, 0x0001 Items, ...) -- CPU_ReadMem(4 bytes @ 0xE000ED30) -- Data:  03 00 00 00  returns 0x01 (0001ms, 0546ms total)
T0E30 003:669 JLINK_ReadMemU32(0xE0001028, 0x0001 Items, ...) -- CPU_ReadMem(4 bytes @ 0xE0001028) -- Data:  00 00 00 00  returns 0x01 (0001ms, 0547ms total)
T0E30 003:670 JLINK_ReadMemU32(0xE0001038, 0x0001 Items, ...) -- CPU_ReadMem(4 bytes @ 0xE0001038) -- Data:  00 02 00 00  returns 0x01 (0001ms, 0548ms total)
T0E30 003:671 JLINK_ReadMemU32(0xE0001048, 0x0001 Items, ...) -- CPU_ReadMem(4 bytes @ 0xE0001048) -- Data:  00 00 00 00  returns 0x01 (0001ms, 0549ms total)
T0E30 003:672 JLINK_ReadMemU32(0xE0001058, 0x0001 Items, ...) -- CPU_ReadMem(4 bytes @ 0xE0001058) -- Data:  00 00 00 00  returns 0x01 (0001ms, 0550ms total)
T0E30 003:673 JLINK_ReadReg(R0)  returns 0x080060F1 (0000ms, 0551ms total)
T0E30 003:673 JLINK_ReadReg(R1)  returns 0x2000F9D8 (0000ms, 0551ms total)
T0E30 003:673 JLINK_ReadReg(R2)  returns 0x00000000 (0000ms, 0551ms total)
T0E30 003:673 JLINK_ReadReg(R3)  returns 0x08003B21 (0000ms, 0551ms total)
T0E30 003:673 JLINK_ReadReg(R4)  returns 0x08008960 (0000ms, 0551ms total)
T0E30 003:673 JLINK_ReadReg(R5)  returns 0x08008960 (0000ms, 0551ms total)
T0E30 003:673 JLINK_ReadReg(R6)  returns 0x00000000 (0000ms, 0551ms total)
T0E30 003:673 JLINK_ReadReg(R7)  returns 0x00000000 (0000ms, 0551ms total)
T0E30 003:673 JLINK_ReadReg(R8)  returns 0x00000000 (0000ms, 0551ms total)
T0E30 003:673 JLINK_ReadReg(R9)  returns 0x20000160 (0000ms, 0551ms total)
T0E30 003:673 JLINK_ReadReg(R10)  returns 0x00000000 (0000ms, 0551ms total)
T0E30 003:673 JLINK_ReadReg(R11)  returns 0x00000000 (0000ms, 0551ms total)
T0E30 003:673 JLINK_ReadReg(R12)  returns 0x00000000 (0000ms, 0551ms total)
T0E30 003:673 JLINK_ReadReg(R13)  returns 0x2000F9D8 (0000ms, 0551ms total)
T0E30 003:673 JLINK_ReadReg(R14)  returns 0x08000775 (0000ms, 0551ms total)
T0E30 003:673 JLINK_ReadReg(R15)  returns 0x080060F0 (0000ms, 0551ms total)
T0E30 003:673 JLINK_ReadReg(XPSR)  returns 0x61000000 (0000ms, 0551ms total)
T0E30 003:673 JLINK_ReadReg(MSP)  returns 0x2000F9D8 (0000ms, 0551ms total)
T0E30 003:673 JLINK_ReadReg(PSP)  returns 0x20000800 (0000ms, 0551ms total)
T0E30 003:673 JLINK_ReadReg(CFBP)  returns 0x00000000 (0000ms, 0551ms total)
T0CBC 003:673 JLINK_WriteReg(R0, 0x080060F1)  returns 0x00 (0000ms, 0551ms total)
T0CBC 003:673 JLINK_WriteReg(R1, 0x2000F9D8)  returns 0x00 (0000ms, 0551ms total)
T0CBC 003:673 JLINK_WriteReg(R2, 0x00000000)  returns 0x00 (0000ms, 0551ms total)
T0CBC 003:673 JLINK_WriteReg(R3, 0x08003B21)  returns 0x00 (0000ms, 0551ms total)
T0CBC 003:673 JLINK_WriteReg(R4, 0x08008960)  returns 0x00 (0000ms, 0551ms total)
T0CBC 003:673 JLINK_WriteReg(R5, 0x08008960)  returns 0x00 (0000ms, 0551ms total)
T0CBC 003:673 JLINK_WriteReg(R6, 0x00000000)  returns 0x00 (0000ms, 0551ms total)
T0CBC 003:673 JLINK_WriteReg(R7, 0x00000000)  returns 0x00 (0000ms, 0551ms total)
T0CBC 003:673 JLINK_WriteReg(R8, 0x00000000)  returns 0x00 (0000ms, 0551ms total)
T0CBC 003:673 JLINK_WriteReg(R9, 0x20000160)  returns 0x00 (0000ms, 0551ms total)
T0CBC 003:673 JLINK_WriteReg(R10, 0x00000000)  returns 0x00 (0000ms, 0551ms total)
T0CBC 003:673 JLINK_WriteReg(R11, 0x00000000)  returns 0x00 (0000ms, 0551ms total)
T0CBC 003:673 JLINK_WriteReg(R12, 0x00000000)  returns 0x00 (0000ms, 0551ms total)
T0CBC 003:673 JLINK_WriteReg(R13, 0x2000F9D8)  returns 0x00 (0000ms, 0551ms total)
T0CBC 003:673 JLINK_WriteReg(R14, 0x08000775)  returns 0x00 (0000ms, 0551ms total)
T0CBC 003:673 JLINK_WriteReg(R15, 0x080060F0)  returns 0x00 (0000ms, 0551ms total)
T0CBC 003:673 JLINK_WriteReg(XPSR, 0x61000000)  returns 0x00 (0000ms, 0551ms total)
T0CBC 003:673 JLINK_WriteReg(MSP, 0x2000F9D8)  returns 0x00 (0000ms, 0551ms total)
T0CBC 003:673 JLINK_WriteReg(PSP, 0x20000800)  returns 0x00 (0000ms, 0551ms total)
T0CBC 003:673 JLINK_WriteReg(CFBP, 0x00000000)  returns 0x00 (0000ms, 0551ms total)
T0CBC 003:673 JLINK_ReadReg(R13)  returns 0x2000F9D8 (0000ms, 0551ms total)
T0CBC 003:673 JLINK_ReadMem (0x2000F9D0, 0x0001 Bytes, ...) -- CPU_ReadMem(64 bytes @ 0x2000F9C0) -- Updating C cache (64 bytes @ 0x2000F9C0) -- Read from C cache (1 bytes @ 0x2000F9D0) -- Data:  00  returns 0x00 (0002ms, 0551ms total)
T0CBC 003:676 JLINK_ReadReg(R13)  returns 0x2000F9D8 (0000ms, 0553ms total)
T0CBC 003:782 JLINK_ReadMem (0x080060F0, 0x003C Bytes, ...) -- CPU_ReadMem(128 bytes @ 0x080060C0) -- Updating C cache (128 bytes @ 0x080060C0) -- Read from C cache (60 bytes @ 0x080060F0) -- Data:  00 B5 87 B0 9D F8 18 00 06 90 FA F7 97 F8 FB F7 ...  returns 0x00 (0003ms, 0553ms total)
T0CBC 012:215 JLINK_ReadMem (0x080084B8, 0x003C Bytes, ...) -- CPU_ReadMem(128 bytes @ 0x08008480) -- Updating C cache (128 bytes @ 0x08008480) -- Read from C cache (60 bytes @ 0x080084B8) -- Data:  55 A0 FB F7 19 FB FC F7 BD F8 C8 46 09 E0 FF F7 ...  returns 0x00 (0004ms, 0556ms total)
T0E30 025:215 JLINK_SetBPEx(Addr = 0x080084B8, Type = 0xFFFFFFF2)  returns 0x00000002 (0002ms, 0560ms total)
T0E30 025:217 JLINK_Go() -- CPU_WriteMem(4 bytes @ 0xE0002008) -- CPU_WriteMem(4 bytes @ 0xE000200C) -- CPU_WriteMem(4 bytes @ 0xE0002010) -- CPU_WriteMem(4 bytes @ 0xE0002014) -- CPU_WriteMem(4 bytes @ 0xE0002018) -- CPU_WriteMem(4 bytes @ 0xE000201C) (0008ms, 0562ms total)
T0E30 025:326 JLINK_IsHalted()  returns FALSE (0000ms, 0570ms total)
T0E30 025:426 JLINK_IsHalted()  returns FALSE (0001ms, 0570ms total)
T0E30 025:528 JLINK_IsHalted()  returns FALSE (0001ms, 0570ms total)
T0E30 025:630 JLINK_IsHalted()  returns FALSE (0000ms, 0570ms total)
T0E30 025:730 JLINK_IsHalted()  returns FALSE (0001ms, 0570ms total)
T0E30 025:832 JLINK_IsHalted()  returns FALSE (0000ms, 0570ms total)
T0E30 025:932 JLINK_IsHalted()  returns FALSE (0001ms, 0570ms total)
T0E30 026:034 JLINK_IsHalted()  returns FALSE (0001ms, 0570ms total)
T0E30 026:135 JLINK_IsHalted()  returns FALSE (0001ms, 0570ms total)
T0E30 026:237 JLINK_IsHalted()  returns FALSE (0001ms, 0570ms total)
T0E30 026:339 JLINK_IsHalted()  returns FALSE (0000ms, 0570ms total)
T0E30 026:439 JLINK_IsHalted()  returns FALSE (0001ms, 0570ms total)
T0E30 026:541 JLINK_IsHalted()  returns FALSE (0000ms, 0570ms total)
T0E30 026:641 JLINK_IsHalted()  returns FALSE (0001ms, 0570ms total)
T0E30 026:743 JLINK_IsHalted()  returns FALSE (0000ms, 0570ms total)
T0E30 026:843 JLINK_IsHalted()  returns FALSE (0001ms, 0570ms total)
T0E30 026:945 JLINK_IsHalted()  returns FALSE (0000ms, 0570ms total)
T0E30 027:046 JLINK_IsHalted()  returns TRUE (0009ms, 0570ms total)
T0E30 027:055 JLINK_Halt()  returns 0x00 (0000ms, 0570ms total)
T0E30 027:055 JLINK_IsHalted()  returns TRUE (0000ms, 0570ms total)
T0E30 027:055 JLINK_IsHalted()  returns TRUE (0000ms, 0570ms total)
T0E30 027:055 JLINK_IsHalted()  returns TRUE (0000ms, 0570ms total)
T0E30 027:055 JLINK_ReadReg(R15)  returns 0x080084B8 (0000ms, 0570ms total)
T0E30 027:055 JLINK_ReadReg(XPSR)  returns 0x01000000 (0000ms, 0570ms total)
T0E30 027:055 JLINK_ClrBPEx(BPHandle = 0x00000002)  returns 0x00 (0000ms, 0570ms total)
T0E30 027:055 JLINK_ReadMemU32(0xE000ED30, 0x0001 Items, ...) -- CPU_ReadMem(4 bytes @ 0xE000ED30) -- Data:  03 00 00 00  returns 0x01 (0001ms, 0570ms total)
T0E30 027:056 JLINK_ReadMemU32(0xE0001028, 0x0001 Items, ...) -- CPU_ReadMem(4 bytes @ 0xE0001028) -- Data:  00 00 00 00  returns 0x01 (0001ms, 0571ms total)
T0E30 027:057 JLINK_ReadMemU32(0xE0001038, 0x0001 Items, ...) -- CPU_ReadMem(4 bytes @ 0xE0001038) -- Data:  00 02 00 00  returns 0x01 (0001ms, 0572ms total)
T0E30 027:058 JLINK_ReadMemU32(0xE0001048, 0x0001 Items, ...) -- CPU_ReadMem(4 bytes @ 0xE0001048) -- Data:  00 00 00 00  returns 0x01 (0001ms, 0573ms total)
T0E30 027:059 JLINK_ReadMemU32(0xE0001058, 0x0001 Items, ...) -- CPU_ReadMem(4 bytes @ 0xE0001058) -- Data:  00 00 00 00  returns 0x01 (0002ms, 0574ms total)
T0E30 027:061 JLINK_ReadReg(R0)  returns 0x08007A59 (0000ms, 0576ms total)
T0E30 027:061 JLINK_ReadReg(R1)  returns 0x0000FF40 (0000ms, 0576ms total)
T0E30 027:061 JLINK_ReadReg(R2)  returns 0x00000000 (0000ms, 0576ms total)
T0E30 027:061 JLINK_ReadReg(R3)  returns 0x2000103C (0000ms, 0576ms total)
T0E30 027:061 JLINK_ReadReg(R4)  returns 0x04040404 (0000ms, 0576ms total)
T0E30 027:061 JLINK_ReadReg(R5)  returns 0x05050505 (0000ms, 0576ms total)
T0E30 027:061 JLINK_ReadReg(R6)  returns 0x06060606 (0000ms, 0576ms total)
T0E30 027:061 JLINK_ReadReg(R7)  returns 0x07070707 (0000ms, 0576ms total)
T0E30 027:061 JLINK_ReadReg(R8)  returns 0x08080808 (0000ms, 0576ms total)
T0E30 027:061 JLINK_ReadReg(R9)  returns 0x00000000 (0000ms, 0576ms total)
T0E30 027:061 JLINK_ReadReg(R10)  returns 0x10101010 (0000ms, 0576ms total)
T0E30 027:061 JLINK_ReadReg(R11)  returns 0x11111111 (0000ms, 0576ms total)
T0E30 027:061 JLINK_ReadReg(R12)  returns 0x00000008 (0000ms, 0576ms total)
T0E30 027:061 JLINK_ReadReg(R13)  returns 0x20000628 (0000ms, 0576ms total)
T0E30 027:061 JLINK_ReadReg(R14)  returns 0x080013C1 (0000ms, 0576ms total)
T0E30 027:061 JLINK_ReadReg(R15)  returns 0x080084B8 (0000ms, 0576ms total)
T0E30 027:061 JLINK_ReadReg(XPSR)  returns 0x01000000 (0000ms, 0576ms total)
T0E30 027:061 JLINK_ReadReg(MSP)  returns 0x2000F990 (0000ms, 0576ms total)
T0E30 027:061 JLINK_ReadReg(PSP)  returns 0x20000628 (0000ms, 0576ms total)
T0E30 027:061 JLINK_ReadReg(CFBP)  returns 0x02000000 (0000ms, 0576ms total)
T0E30 027:061 JLINK_ReadMem (0x2000065C, 0x0004 Bytes, ...) -- CPU_ReadMem(64 bytes @ 0x20000640) -- Updating C cache (64 bytes @ 0x20000640) -- Read from C cache (4 bytes @ 0x2000065C) -- Data:  00 00 00 00  returns 0x00 (0002ms, 0576ms total)
T0CBC 027:063 JLINK_WriteReg(R0, 0x08007A59)  returns 0x00 (0000ms, 0578ms total)
T0CBC 027:063 JLINK_WriteReg(R1, 0x0000FF40)  returns 0x00 (0000ms, 0578ms total)
T0CBC 027:063 JLINK_WriteReg(R2, 0x00000000)  returns 0x00 (0000ms, 0578ms total)
T0CBC 027:063 JLINK_WriteReg(R3, 0x2000103C)  returns 0x00 (0000ms, 0578ms total)
T0CBC 027:063 JLINK_WriteReg(R4, 0x04040404)  returns 0x00 (0000ms, 0578ms total)
T0CBC 027:063 JLINK_WriteReg(R5, 0x05050505)  returns 0x00 (0000ms, 0578ms total)
T0CBC 027:063 JLINK_WriteReg(R6, 0x06060606)  returns 0x00 (0000ms, 0578ms total)
T0CBC 027:063 JLINK_WriteReg(R7, 0x07070707)  returns 0x00 (0000ms, 0578ms total)
T0CBC 027:063 JLINK_WriteReg(R8, 0x08080808)  returns 0x00 (0000ms, 0578ms total)
T0CBC 027:063 JLINK_WriteReg(R9, 0x00000000)  returns 0x00 (0000ms, 0578ms total)
T0CBC 027:063 JLINK_WriteReg(R10, 0x10101010)  returns 0x00 (0000ms, 0578ms total)
T0CBC 027:063 JLINK_WriteReg(R11, 0x11111111)  returns 0x00 (0000ms, 0578ms total)
T0CBC 027:063 JLINK_WriteReg(R12, 0x00000008)  returns 0x00 (0000ms, 0578ms total)
T0CBC 027:063 JLINK_WriteReg(R13, 0x20000628)  returns 0x00 (0000ms, 0578ms total)
T0CBC 027:063 JLINK_WriteReg(R14, 0x080013C1)  returns 0x00 (0000ms, 0578ms total)
T0CBC 027:063 JLINK_WriteReg(R15, 0x080084B8)  returns 0x00 (0000ms, 0578ms total)
T0CBC 027:063 JLINK_WriteReg(XPSR, 0x01000000)  returns 0x00 (0000ms, 0578ms total)
T0CBC 027:063 JLINK_WriteReg(MSP, 0x2000F990)  returns 0x00 (0001ms, 0578ms total)
T0CBC 027:064 JLINK_WriteReg(PSP, 0x20000628)  returns 0x00 (0000ms, 0579ms total)
T0CBC 027:064 JLINK_WriteReg(CFBP, 0x02000000)  returns 0x00 (0000ms, 0579ms total)
T0CBC 027:064 JLINK_ReadReg(R9)  returns 0x00000000 (0000ms, 0579ms total)
T0CBC 027:064 JLINK_ReadReg(R9)  returns 0x00000000 (0000ms, 0579ms total)
T0CBC 027:064 JLINK_ReadReg(R7)  returns 0x07070707 (0000ms, 0579ms total)
T0CBC 027:065 JLINK_ReadReg(R7)  returns 0x07070707 (0000ms, 0579ms total)
T0CBC 027:065 JLINK_ReadReg(R13)  returns 0x20000628 (0000ms, 0579ms total)
T0CBC 027:065 JLINK_ReadReg(R13)  returns 0x20000628 (0000ms, 0579ms total)
T0CBC 027:065 JLINK_ReadReg(R13)  returns 0x20000628 (0000ms, 0579ms total)
T0CBC 027:065 JLINK_ReadMem (0x2000062C, 0x0001 Bytes, ...) -- CPU_ReadMem(64 bytes @ 0x20000600) -- Updating C cache (64 bytes @ 0x20000600) -- Read from C cache (1 bytes @ 0x2000062C) -- Data:  09  returns 0x00 (0002ms, 0579ms total)
T0CBC 027:067 JLINK_ReadReg(R13)  returns 0x20000628 (0000ms, 0581ms total)
T0CBC 027:067 JLINK_ReadReg(R13)  returns 0x20000628 (0000ms, 0581ms total)
T0CBC 027:067 JLINK_ReadReg(R13)  returns 0x20000628 (0000ms, 0581ms total)
T0CBC 027:067 JLINK_ReadReg(R15)  returns 0x080084B8 (0000ms, 0581ms total)
T0CBC 027:067 JLINK_ReadReg(R10)  returns 0x10101010 (0000ms, 0581ms total)
T0CBC 027:067 JLINK_ReadReg(R15)  returns 0x080084B8 (0000ms, 0581ms total)
T0CBC 027:067 JLINK_ReadReg(R10)  returns 0x10101010 (0000ms, 0581ms total)
T0CBC 027:072 JLINK_ReadMem (0x080084B8, 0x003C Bytes, ...) -- CPU_ReadMem(128 bytes @ 0x08008480) -- Updating C cache (128 bytes @ 0x08008480) -- Read from C cache (60 bytes @ 0x080084B8) -- Data:  55 A0 FB F7 19 FB FC F7 BD F8 C8 46 09 E0 FF F7 ...  returns 0x00 (0002ms, 0581ms total)
T0E30 041:762 JLINK_Step() -- Read from C cache (2 bytes @ 0x080084B8) -- Not simulated -- CPU_WriteMem(4 bytes @ 0xE0002008) -- CPU_WriteMem(4 bytes @ 0xE000200C) -- CPU_WriteMem(4 bytes @ 0xE0002010) -- CPU_WriteMem(4 bytes @ 0xE0002014) -- CPU_WriteMem(4 bytes @ 0xE0002018) -- CPU_WriteMem(4 bytes @ 0xE000201C)  returns 0x00 (0018ms, 0583ms total)
T0E30 041:780 JLINK_ReadReg(R15)  returns 0x080084BA (0000ms, 0601ms total)
T0E30 041:780 JLINK_ReadReg(XPSR)  returns 0x01000000 (0000ms, 0601ms total)
T0E30 041:780 JLINK_SetBPEx(Addr = 0x080084BE, Type = 0xFFFFFFF2)  returns 0x00000003 (0000ms, 0601ms total)
T0E30 041:780 JLINK_SetBPEx(Addr = 0x080084B8, Type = 0xFFFFFFF2)  returns 0x00000004 (0000ms, 0601ms total)
T0E30 041:780 JLINK_Go() -- CPU_WriteMem(4 bytes @ 0xE0002008) -- CPU_WriteMem(4 bytes @ 0xE000200C) -- CPU_WriteMem(4 bytes @ 0xE0002010) -- CPU_WriteMem(4 bytes @ 0xE0002014) -- CPU_WriteMem(4 bytes @ 0xE0002018) -- CPU_WriteMem(4 bytes @ 0xE000201C) (0007ms, 0601ms total)
T0E30 041:887 JLINK_IsHalted()  returns TRUE (0009ms, 0608ms total)
T0E30 041:896 JLINK_Halt()  returns 0x00 (0000ms, 0608ms total)
T0E30 041:896 JLINK_IsHalted()  returns TRUE (0000ms, 0608ms total)
T0E30 041:896 JLINK_IsHalted()  returns TRUE (0000ms, 0608ms total)
T0E30 041:896 JLINK_IsHalted()  returns TRUE (0000ms, 0608ms total)
T0E30 041:896 JLINK_ReadReg(R15)  returns 0x080084BE (0000ms, 0608ms total)
T0E30 041:896 JLINK_ReadReg(XPSR)  returns 0x61000000 (0000ms, 0608ms total)
T0E30 041:896 JLINK_ClrBPEx(BPHandle = 0x00000003)  returns 0x00 (0000ms, 0608ms total)
T0E30 041:896 JLINK_ClrBPEx(BPHandle = 0x00000004)  returns 0x00 (0000ms, 0608ms total)
T0E30 041:896 JLINK_ReadMemU32(0xE000ED30, 0x0001 Items, ...) -- CPU_ReadMem(4 bytes @ 0xE000ED30) -- Data:  03 00 00 00  returns 0x01 (0001ms, 0608ms total)
T0E30 041:897 JLINK_ReadMemU32(0xE0001028, 0x0001 Items, ...) -- CPU_ReadMem(4 bytes @ 0xE0001028) -- Data:  00 00 00 00  returns 0x01 (0001ms, 0609ms total)
T0E30 041:898 JLINK_ReadMemU32(0xE0001038, 0x0001 Items, ...) -- CPU_ReadMem(4 bytes @ 0xE0001038) -- Data:  00 02 00 00  returns 0x01 (0001ms, 0610ms total)
T0E30 041:899 JLINK_ReadMemU32(0xE0001048, 0x0001 Items, ...) -- CPU_ReadMem(4 bytes @ 0xE0001048) -- Data:  00 00 00 00  returns 0x01 (0001ms, 0611ms total)
T0E30 041:900 JLINK_ReadMemU32(0xE0001058, 0x0001 Items, ...) -- CPU_ReadMem(4 bytes @ 0xE0001058) -- Data:  00 00 00 00  returns 0x01 (0001ms, 0612ms total)
T0E30 041:901 JLINK_ReadReg(R0)  returns 0x00000014 (0000ms, 0613ms total)
T0E30 041:901 JLINK_ReadReg(R1)  returns 0x00000040 (0000ms, 0613ms total)
T0E30 041:901 JLINK_ReadReg(R2)  returns 0x40004400 (0000ms, 0613ms total)
T0E30 041:901 JLINK_ReadReg(R3)  returns 0x000000C0 (0000ms, 0613ms total)
T0E30 041:901 JLINK_ReadReg(R4)  returns 0x04040404 (0000ms, 0613ms total)
T0E30 041:901 JLINK_ReadReg(R5)  returns 0x05050505 (0000ms, 0613ms total)
T0E30 041:901 JLINK_ReadReg(R6)  returns 0x06060606 (0000ms, 0613ms total)
T0E30 041:901 JLINK_ReadReg(R7)  returns 0x07070707 (0000ms, 0613ms total)
T0E30 041:901 JLINK_ReadReg(R8)  returns 0x08080808 (0000ms, 0613ms total)
T0E30 041:901 JLINK_ReadReg(R9)  returns 0x00000000 (0000ms, 0613ms total)
T0E30 041:901 JLINK_ReadReg(R10)  returns 0x10101010 (0000ms, 0613ms total)
T0E30 041:901 JLINK_ReadReg(R11)  returns 0x11111111 (0000ms, 0613ms total)
T0E30 041:901 JLINK_ReadReg(R12)  returns 0x00000008 (0000ms, 0613ms total)
T0E30 041:901 JLINK_ReadReg(R13)  returns 0x20000628 (0000ms, 0613ms total)
T0E30 041:901 JLINK_ReadReg(R14)  returns 0x08005A7D (0000ms, 0613ms total)
T0E30 041:901 JLINK_ReadReg(R15)  returns 0x080084BE (0000ms, 0613ms total)
T0E30 041:901 JLINK_ReadReg(XPSR)  returns 0x61000000 (0000ms, 0613ms total)
T0E30 041:901 JLINK_ReadReg(MSP)  returns 0x2000F990 (0000ms, 0613ms total)
T0E30 041:901 JLINK_ReadReg(PSP)  returns 0x20000628 (0000ms, 0613ms total)
T0E30 041:901 JLINK_ReadReg(CFBP)  returns 0x02000000 (0000ms, 0613ms total)
T0E30 041:902 JLINK_ReadMem (0x20000664, 0x0004 Bytes, ...) -- CPU_ReadMem(64 bytes @ 0x20000640) -- Updating C cache (64 bytes @ 0x20000640) -- Read from C cache (4 bytes @ 0x20000664) -- Data:  00 00 00 00  returns 0x00 (0001ms, 0613ms total)
T0CBC 041:904 JLINK_WriteReg(R0, 0x00000014)  returns 0x00 (0000ms, 0614ms total)
T0CBC 041:904 JLINK_WriteReg(R1, 0x00000040)  returns 0x00 (0000ms, 0614ms total)
T0CBC 041:904 JLINK_WriteReg(R2, 0x40004400)  returns 0x00 (0000ms, 0614ms total)
T0CBC 041:904 JLINK_WriteReg(R3, 0x000000C0)  returns 0x00 (0000ms, 0614ms total)
T0CBC 041:904 JLINK_WriteReg(R4, 0x04040404)  returns 0x00 (0000ms, 0614ms total)
T0CBC 041:904 JLINK_WriteReg(R5, 0x05050505)  returns 0x00 (0000ms, 0614ms total)
T0CBC 041:904 JLINK_WriteReg(R6, 0x06060606)  returns 0x00 (0000ms, 0614ms total)
T0CBC 041:904 JLINK_WriteReg(R7, 0x07070707)  returns 0x00 (0000ms, 0614ms total)
T0CBC 041:904 JLINK_WriteReg(R8, 0x08080808)  returns 0x00 (0000ms, 0614ms total)
T0CBC 041:904 JLINK_WriteReg(R9, 0x00000000)  returns 0x00 (0000ms, 0614ms total)
T0CBC 041:904 JLINK_WriteReg(R10, 0x10101010)  returns 0x00 (0000ms, 0614ms total)
T0CBC 041:904 JLINK_WriteReg(R11, 0x11111111)  returns 0x00 (0000ms, 0614ms total)
T0CBC 041:904 JLINK_WriteReg(R12, 0x00000008)  returns 0x00 (0001ms, 0614ms total)
T0CBC 041:905 JLINK_WriteReg(R13, 0x20000628)  returns 0x00 (0000ms, 0615ms total)
T0CBC 041:905 JLINK_WriteReg(R14, 0x08005A7D)  returns 0x00 (0000ms, 0615ms total)
T0CBC 041:905 JLINK_WriteReg(R15, 0x080084BE)  returns 0x00 (0000ms, 0615ms total)
T0CBC 041:905 JLINK_WriteReg(XPSR, 0x61000000)  returns 0x00 (0000ms, 0615ms total)
T0CBC 041:905 JLINK_WriteReg(MSP, 0x2000F990)  returns 0x00 (0000ms, 0615ms total)
T0CBC 041:905 JLINK_WriteReg(PSP, 0x20000628)  returns 0x00 (0000ms, 0615ms total)
T0CBC 041:905 JLINK_WriteReg(CFBP, 0x02000000)  returns 0x00 (0000ms, 0615ms total)
T0CBC 041:905 JLINK_ReadReg(R9)  returns 0x00000000 (0000ms, 0615ms total)
T0CBC 041:905 JLINK_ReadReg(R7)  returns 0x07070707 (0000ms, 0615ms total)
T0CBC 041:905 JLINK_ReadReg(R13)  returns 0x20000628 (0000ms, 0615ms total)
T0CBC 041:905 JLINK_ReadReg(R13)  returns 0x20000628 (0000ms, 0615ms total)
T0CBC 041:905 JLINK_ReadMem (0x2000062C, 0x0001 Bytes, ...) -- CPU_ReadMem(64 bytes @ 0x20000600) -- Updating C cache (64 bytes @ 0x20000600) -- Read from C cache (1 bytes @ 0x2000062C) -- Data:  09  returns 0x00 (0001ms, 0615ms total)
T0CBC 041:906 JLINK_ReadReg(R13)  returns 0x20000628 (0000ms, 0616ms total)
T0CBC 041:907 JLINK_ReadReg(R15)  returns 0x080084BE (0000ms, 0616ms total)
T0CBC 041:907 JLINK_ReadReg(R10)  returns 0x10101010 (0000ms, 0616ms total)
T0CBC 041:911 JLINK_ReadMem (0x080084BE, 0x0002 Bytes, ...) -- CPU_ReadMem(64 bytes @ 0x08008480) -- Updating C cache (64 bytes @ 0x08008480) -- Read from C cache (2 bytes @ 0x080084BE) -- Data:  FC F7  returns 0x00 (0001ms, 0616ms total)
T0CBC 041:912 JLINK_ReadMem (0x080084C0, 0x003C Bytes, ...) -- CPU_ReadMem(64 bytes @ 0x080084C0) -- Updating C cache (64 bytes @ 0x080084C0) -- Read from C cache (60 bytes @ 0x080084C0) -- Data:  BD F8 C8 46 09 E0 FF F7 41 F9 4F F4 FA 70 F8 F7 ...  returns 0x00 (0001ms, 0617ms total)
T0E30 044:272 JLINK_SetBPEx(Addr = 0x080084C2, Type = 0xFFFFFFF2)  returns 0x00000005 (0001ms, 0618ms total)
T0E30 044:273 JLINK_SetBPEx(Addr = 0x080084B8, Type = 0xFFFFFFF2)  returns 0x00000006 (0000ms, 0619ms total)
T0E30 044:273 JLINK_Go() -- CPU_WriteMem(4 bytes @ 0xE0002008) -- CPU_WriteMem(4 bytes @ 0xE000200C) -- CPU_WriteMem(4 bytes @ 0xE0002010) -- CPU_WriteMem(4 bytes @ 0xE0002014) -- CPU_WriteMem(4 bytes @ 0xE0002018) -- CPU_WriteMem(4 bytes @ 0xE000201C) (0008ms, 0619ms total)
T0E30 044:381 JLINK_IsHalted()  returns TRUE (0009ms, 0627ms total)
T0E30 044:390 JLINK_Halt()  returns 0x00 (0000ms, 0627ms total)
T0E30 044:390 JLINK_IsHalted()  returns TRUE (0000ms, 0627ms total)
T0E30 044:390 JLINK_IsHalted()  returns TRUE (0000ms, 0627ms total)
T0E30 044:390 JLINK_IsHalted()  returns TRUE (0000ms, 0627ms total)
T0E30 044:390 JLINK_ReadReg(R15)  returns 0x080084C2 (0000ms, 0627ms total)
T0E30 044:390 JLINK_ReadReg(XPSR)  returns 0x41000000 (0000ms, 0627ms total)
T0E30 044:390 JLINK_ClrBPEx(BPHandle = 0x00000005)  returns 0x00 (0000ms, 0627ms total)
T0E30 044:390 JLINK_ClrBPEx(BPHandle = 0x00000006)  returns 0x00 (0000ms, 0627ms total)
T0E30 044:390 JLINK_ReadMemU32(0xE000ED30, 0x0001 Items, ...) -- CPU_ReadMem(4 bytes @ 0xE000ED30) -- Data:  03 00 00 00  returns 0x01 (0001ms, 0627ms total)
T0E30 044:391 JLINK_ReadMemU32(0xE0001028, 0x0001 Items, ...) -- CPU_ReadMem(4 bytes @ 0xE0001028) -- Data:  00 00 00 00  returns 0x01 (0001ms, 0628ms total)
T0E30 044:392 JLINK_ReadMemU32(0xE0001038, 0x0001 Items, ...) -- CPU_ReadMem(4 bytes @ 0xE0001038) -- Data:  00 02 00 00  returns 0x01 (0001ms, 0629ms total)
T0E30 044:393 JLINK_ReadMemU32(0xE0001048, 0x0001 Items, ...) -- CPU_ReadMem(4 bytes @ 0xE0001048) -- Data:  00 00 00 00  returns 0x01 (0001ms, 0630ms total)
T0E30 044:394 JLINK_ReadMemU32(0xE0001058, 0x0001 Items, ...) -- CPU_ReadMem(4 bytes @ 0xE0001058) -- Data:  00 00 00 00  returns 0x01 (0001ms, 0631ms total)
T0E30 044:395 JLINK_ReadReg(R0)  returns 0x00000000 (0000ms, 0632ms total)
T0E30 044:395 JLINK_ReadReg(R1)  returns 0x20000FE0 (0000ms, 0632ms total)
T0E30 044:395 JLINK_ReadReg(R2)  returns 0x2000E7C4 (0000ms, 0632ms total)
T0E30 044:395 JLINK_ReadReg(R3)  returns 0x00000000 (0000ms, 0632ms total)
T0E30 044:395 JLINK_ReadReg(R4)  returns 0x04040404 (0000ms, 0632ms total)
T0E30 044:395 JLINK_ReadReg(R5)  returns 0x05050505 (0000ms, 0632ms total)
T0E30 044:395 JLINK_ReadReg(R6)  returns 0x06060606 (0000ms, 0632ms total)
T0E30 044:395 JLINK_ReadReg(R7)  returns 0x07070707 (0000ms, 0632ms total)
T0E30 044:395 JLINK_ReadReg(R8)  returns 0x08080808 (0000ms, 0632ms total)
T0E30 044:395 JLINK_ReadReg(R9)  returns 0x00000000 (0000ms, 0632ms total)
T0E30 044:395 JLINK_ReadReg(R10)  returns 0x10101010 (0000ms, 0632ms total)
T0E30 044:395 JLINK_ReadReg(R11)  returns 0x11111111 (0000ms, 0632ms total)
T0E30 044:395 JLINK_ReadReg(R12)  returns 0x00000008 (0000ms, 0632ms total)
T0E30 044:395 JLINK_ReadReg(R13)  returns 0x20000628 (0000ms, 0632ms total)
T0E30 044:395 JLINK_ReadReg(R14)  returns 0x08004695 (0000ms, 0632ms total)
T0E30 044:395 JLINK_ReadReg(R15)  returns 0x080084C2 (0000ms, 0632ms total)
T0E30 044:395 JLINK_ReadReg(XPSR)  returns 0x41000000 (0000ms, 0632ms total)
T0E30 044:395 JLINK_ReadReg(MSP)  returns 0x2000F990 (0000ms, 0632ms total)
T0E30 044:395 JLINK_ReadReg(PSP)  returns 0x20000628 (0000ms, 0632ms total)
T0E30 044:395 JLINK_ReadReg(CFBP)  returns 0x02000000 (0000ms, 0632ms total)
T0E30 044:395 JLINK_ReadMem (0x2000065C, 0x0004 Bytes, ...) -- CPU_ReadMem(64 bytes @ 0x20000640) -- Updating C cache (64 bytes @ 0x20000640) -- Read from C cache (4 bytes @ 0x2000065C) -- Data:  00 00 00 00  returns 0x00 (0002ms, 0632ms total)
T0CBC 044:397 JLINK_WriteReg(R0, 0x00000000)  returns 0x00 (0000ms, 0634ms total)
T0CBC 044:397 JLINK_WriteReg(R1, 0x20000FE0)  returns 0x00 (0000ms, 0634ms total)
T0CBC 044:397 JLINK_WriteReg(R2, 0x2000E7C4)  returns 0x00 (0000ms, 0634ms total)
T0CBC 044:397 JLINK_WriteReg(R3, 0x00000000)  returns 0x00 (0000ms, 0634ms total)
T0CBC 044:397 JLINK_WriteReg(R4, 0x04040404)  returns 0x00 (0000ms, 0634ms total)
T0CBC 044:397 JLINK_WriteReg(R5, 0x05050505)  returns 0x00 (0000ms, 0634ms total)
T0CBC 044:397 JLINK_WriteReg(R6, 0x06060606)  returns 0x00 (0000ms, 0634ms total)
T0CBC 044:397 JLINK_WriteReg(R7, 0x07070707)  returns 0x00 (0000ms, 0634ms total)
T0CBC 044:397 JLINK_WriteReg(R8, 0x08080808)  returns 0x00 (0000ms, 0634ms total)
T0CBC 044:397 JLINK_WriteReg(R9, 0x00000000)  returns 0x00 (0000ms, 0634ms total)
T0CBC 044:397 JLINK_WriteReg(R10, 0x10101010)  returns 0x00 (0000ms, 0634ms total)
T0CBC 044:397 JLINK_WriteReg(R11, 0x11111111)  returns 0x00 (0000ms, 0634ms total)
T0CBC 044:397 JLINK_WriteReg(R12, 0x00000008)  returns 0x00 (0001ms, 0634ms total)
T0CBC 044:398 JLINK_WriteReg(R13, 0x20000628)  returns 0x00 (0000ms, 0635ms total)
T0CBC 044:398 JLINK_WriteReg(R14, 0x08004695)  returns 0x00 (0000ms, 0635ms total)
T0CBC 044:398 JLINK_WriteReg(R15, 0x080084C2)  returns 0x00 (0000ms, 0635ms total)
T0CBC 044:398 JLINK_WriteReg(XPSR, 0x41000000)  returns 0x00 (0000ms, 0635ms total)
T0CBC 044:398 JLINK_WriteReg(MSP, 0x2000F990)  returns 0x00 (0000ms, 0635ms total)
T0CBC 044:398 JLINK_WriteReg(PSP, 0x20000628)  returns 0x00 (0000ms, 0635ms total)
T0CBC 044:398 JLINK_WriteReg(CFBP, 0x02000000)  returns 0x00 (0000ms, 0635ms total)
T0CBC 044:398 JLINK_ReadReg(R9)  returns 0x00000000 (0000ms, 0635ms total)
T0CBC 044:398 JLINK_ReadReg(R7)  returns 0x07070707 (0000ms, 0635ms total)
T0CBC 044:398 JLINK_ReadReg(R13)  returns 0x20000628 (0000ms, 0635ms total)
T0CBC 044:398 JLINK_ReadReg(R13)  returns 0x20000628 (0000ms, 0635ms total)
T0CBC 044:398 JLINK_ReadMem (0x2000062C, 0x0001 Bytes, ...) -- CPU_ReadMem(64 bytes @ 0x20000600) -- Updating C cache (64 bytes @ 0x20000600) -- Read from C cache (1 bytes @ 0x2000062C) -- Data:  09  returns 0x00 (0001ms, 0635ms total)
T0CBC 044:399 JLINK_ReadReg(R13)  returns 0x20000628 (0000ms, 0636ms total)
T0CBC 044:399 JLINK_ReadReg(R15)  returns 0x080084C2 (0000ms, 0636ms total)
T0CBC 044:399 JLINK_ReadReg(R10)  returns 0x10101010 (0000ms, 0636ms total)
T0CBC 044:403 JLINK_ReadMem (0x080084C2, 0x0002 Bytes, ...) -- CPU_ReadMem(64 bytes @ 0x080084C0) -- Updating C cache (64 bytes @ 0x080084C0) -- Read from C cache (2 bytes @ 0x080084C2) -- Data:  C8 46  returns 0x00 (0002ms, 0636ms total)
T0CBC 044:405 JLINK_ReadMem (0x080084C4, 0x003C Bytes, ...) -- Read from C cache (60 bytes @ 0x080084C4) -- Data:  09 E0 FF F7 41 F9 4F F4 FA 70 F8 F7 DE F9 08 F1 ...  returns 0x00 (0000ms, 0638ms total)
T0E30 044:848 JLINK_Step() -- Read from C cache (2 bytes @ 0x080084C2) -- Not simulated -- CPU_WriteMem(4 bytes @ 0xE0002008) -- CPU_WriteMem(4 bytes @ 0xE000200C) -- CPU_WriteMem(4 bytes @ 0xE0002010) -- CPU_WriteMem(4 bytes @ 0xE0002014) -- CPU_WriteMem(4 bytes @ 0xE0002018) -- CPU_WriteMem(4 bytes @ 0xE000201C)  returns 0x00 (0016ms, 0638ms total)
T0E30 044:864 JLINK_ReadReg(R15)  returns 0x080084C4 (0000ms, 0654ms total)
T0E30 044:864 JLINK_ReadReg(XPSR)  returns 0x41000000 (0000ms, 0654ms total)
T0E30 044:864 JLINK_Step() -- CPU_ReadMem(64 bytes @ 0x080084C0) -- Updating C cache (64 bytes @ 0x080084C0) -- Read from C cache (2 bytes @ 0x080084C4) -- Not simulated -- CPU_WriteMem(4 bytes @ 0xE0002008) -- CPU_WriteMem(4 bytes @ 0xE000200C) -- CPU_WriteMem(4 bytes @ 0xE0002010) -- CPU_WriteMem(4 bytes @ 0xE0002014) -- CPU_WriteMem(4 bytes @ 0xE0002018) -- CPU_WriteMem(4 bytes @ 0xE000201C)  returns 0x00 (0017ms, 0654ms total)
T0E30 044:881 JLINK_ReadReg(R15)  returns 0x080084DA (0000ms, 0671ms total)
T0E30 044:881 JLINK_ReadReg(XPSR)  returns 0x41000000 (0000ms, 0671ms total)
T0E30 044:881 JLINK_Step() -- CPU_ReadMem(64 bytes @ 0x080084C0) -- Updating C cache (64 bytes @ 0x080084C0) -- Read from C cache (2 bytes @ 0x080084DA) -- Not simulated -- CPU_WriteMem(4 bytes @ 0xE0002008) -- CPU_WriteMem(4 bytes @ 0xE000200C) -- CPU_WriteMem(4 bytes @ 0xE0002010) -- CPU_WriteMem(4 bytes @ 0xE0002014) -- CPU_WriteMem(4 bytes @ 0xE0002018) -- CPU_WriteMem(4 bytes @ 0xE000201C)  returns 0x00 (0017ms, 0671ms total)
T0E30 044:898 JLINK_ReadReg(R15)  returns 0x080084DE (0000ms, 0688ms total)
T0E30 044:898 JLINK_ReadReg(XPSR)  returns 0x81000000 (0000ms, 0688ms total)
T0E30 044:898 JLINK_Step() -- CPU_ReadMem(64 bytes @ 0x080084C0) -- Updating C cache (64 bytes @ 0x080084C0) -- Read from C cache (2 bytes @ 0x080084DE) -- Not simulated -- CPU_WriteMem(4 bytes @ 0xE0002008) -- CPU_WriteMem(4 bytes @ 0xE000200C) -- CPU_WriteMem(4 bytes @ 0xE0002010) -- CPU_WriteMem(4 bytes @ 0xE0002014) -- CPU_WriteMem(4 bytes @ 0xE0002018) -- CPU_WriteMem(4 bytes @ 0xE000201C)  returns 0x00 (0018ms, 0688ms total)
T0E30 044:916 JLINK_ReadReg(R15)  returns 0x080084C6 (0000ms, 0706ms total)
T0E30 044:916 JLINK_ReadReg(XPSR)  returns 0x81000000 (0000ms, 0706ms total)
T0E30 044:917 JLINK_ReadReg(R0)  returns 0x00000000 (0000ms, 0706ms total)
T0E30 044:917 JLINK_ReadReg(R1)  returns 0x20000FE0 (0000ms, 0706ms total)
T0E30 044:917 JLINK_ReadReg(R2)  returns 0x2000E7C4 (0000ms, 0706ms total)
T0E30 044:917 JLINK_ReadReg(R3)  returns 0x00000000 (0000ms, 0706ms total)
T0E30 044:917 JLINK_ReadReg(R4)  returns 0x04040404 (0000ms, 0706ms total)
T0E30 044:917 JLINK_ReadReg(R5)  returns 0x05050505 (0000ms, 0706ms total)
T0E30 044:917 JLINK_ReadReg(R6)  returns 0x06060606 (0000ms, 0706ms total)
T0E30 044:917 JLINK_ReadReg(R7)  returns 0x07070707 (0000ms, 0706ms total)
T0E30 044:917 JLINK_ReadReg(R8)  returns 0x00000000 (0000ms, 0706ms total)
T0E30 044:917 JLINK_ReadReg(R9)  returns 0x00000000 (0000ms, 0706ms total)
T0E30 044:917 JLINK_ReadReg(R10)  returns 0x10101010 (0000ms, 0706ms total)
T0E30 044:917 JLINK_ReadReg(R11)  returns 0x11111111 (0000ms, 0706ms total)
T0E30 044:917 JLINK_ReadReg(R12)  returns 0x00000008 (0000ms, 0706ms total)
T0E30 044:917 JLINK_ReadReg(R13)  returns 0x20000628 (0000ms, 0706ms total)
T0E30 044:917 JLINK_ReadReg(R14)  returns 0x08004695 (0000ms, 0706ms total)
T0E30 044:917 JLINK_ReadReg(R15)  returns 0x080084C6 (0000ms, 0706ms total)
T0E30 044:917 JLINK_ReadReg(XPSR)  returns 0x81000000 (0000ms, 0706ms total)
T0E30 044:917 JLINK_ReadReg(MSP)  returns 0x2000F990 (0000ms, 0706ms total)
T0E30 044:917 JLINK_ReadReg(PSP)  returns 0x20000628 (0000ms, 0706ms total)
T0E30 044:917 JLINK_ReadReg(CFBP)  returns 0x02000000 (0000ms, 0706ms total)
T0E30 044:917 JLINK_ReadMem (0x2000065C, 0x0004 Bytes, ...) -- CPU_ReadMem(64 bytes @ 0x20000640) -- Updating C cache (64 bytes @ 0x20000640) -- Read from C cache (4 bytes @ 0x2000065C) -- Data:  00 00 00 00  returns 0x00 (0002ms, 0706ms total)
T0CBC 044:919 JLINK_WriteReg(R0, 0x00000000)  returns 0x00 (0000ms, 0708ms total)
T0CBC 044:919 JLINK_WriteReg(R1, 0x20000FE0)  returns 0x00 (0000ms, 0708ms total)
T0CBC 044:919 JLINK_WriteReg(R2, 0x2000E7C4)  returns 0x00 (0000ms, 0708ms total)
T0CBC 044:919 JLINK_WriteReg(R3, 0x00000000)  returns 0x00 (0000ms, 0708ms total)
T0CBC 044:919 JLINK_WriteReg(R4, 0x04040404)  returns 0x00 (0000ms, 0708ms total)
T0CBC 044:919 JLINK_WriteReg(R5, 0x05050505)  returns 0x00 (0000ms, 0708ms total)
T0CBC 044:919 JLINK_WriteReg(R6, 0x06060606)  returns 0x00 (0000ms, 0708ms total)
T0CBC 044:919 JLINK_WriteReg(R7, 0x07070707)  returns 0x00 (0000ms, 0708ms total)
T0CBC 044:919 JLINK_WriteReg(R8, 0x00000000)  returns 0x00 (0000ms, 0708ms total)
T0CBC 044:919 JLINK_WriteReg(R9, 0x00000000)  returns 0x00 (0000ms, 0708ms total)
T0CBC 044:919 JLINK_WriteReg(R10, 0x10101010)  returns 0x00 (0000ms, 0708ms total)
T0CBC 044:919 JLINK_WriteReg(R11, 0x11111111)  returns 0x00 (0000ms, 0708ms total)
T0CBC 044:919 JLINK_WriteReg(R12, 0x00000008)  returns 0x00 (0000ms, 0708ms total)
T0CBC 044:919 JLINK_WriteReg(R13, 0x20000628)  returns 0x00 (0000ms, 0708ms total)
T0CBC 044:919 JLINK_WriteReg(R14, 0x08004695)  returns 0x00 (0000ms, 0708ms total)
T0CBC 044:919 JLINK_WriteReg(R15, 0x080084C6)  returns 0x00 (0000ms, 0708ms total)
T0CBC 044:919 JLINK_WriteReg(XPSR, 0x81000000)  returns 0x00 (0000ms, 0708ms total)
T0CBC 044:919 JLINK_WriteReg(MSP, 0x2000F990)  returns 0x00 (0000ms, 0708ms total)
T0CBC 044:919 JLINK_WriteReg(PSP, 0x20000628)  returns 0x00 (0000ms, 0708ms total)
T0CBC 044:919 JLINK_WriteReg(CFBP, 0x02000000)  returns 0x00 (0000ms, 0708ms total)
T0CBC 044:919 JLINK_ReadReg(R8)  returns 0x00000000 (0000ms, 0708ms total)
T0CBC 044:919 JLINK_ReadReg(R9)  returns 0x00000000 (0000ms, 0708ms total)
T0CBC 044:919 JLINK_ReadReg(R7)  returns 0x07070707 (0000ms, 0708ms total)
T0CBC 044:919 JLINK_ReadReg(R13)  returns 0x20000628 (0000ms, 0708ms total)
T0CBC 044:919 JLINK_ReadReg(R13)  returns 0x20000628 (0000ms, 0708ms total)
T0CBC 044:919 JLINK_ReadMem (0x2000062C, 0x0001 Bytes, ...) -- CPU_ReadMem(64 bytes @ 0x20000600) -- Updating C cache (64 bytes @ 0x20000600) -- Read from C cache (1 bytes @ 0x2000062C) -- Data:  09  returns 0x00 (0002ms, 0708ms total)
T0CBC 044:921 JLINK_ReadReg(R13)  returns 0x20000628 (0000ms, 0710ms total)
T0CBC 044:921 JLINK_ReadReg(R15)  returns 0x080084C6 (0000ms, 0710ms total)
T0CBC 044:921 JLINK_ReadReg(R10)  returns 0x10101010 (0000ms, 0710ms total)
T0CBC 044:924 JLINK_ReadMem (0x080084C6, 0x0002 Bytes, ...) -- CPU_ReadMem(64 bytes @ 0x080084C0) -- Updating C cache (64 bytes @ 0x080084C0) -- Read from C cache (2 bytes @ 0x080084C6) -- Data:  FF F7  returns 0x00 (0002ms, 0710ms total)
T0CBC 044:926 JLINK_ReadMem (0x080084C8, 0x003C Bytes, ...) -- CPU_ReadMem(64 bytes @ 0x08008500) -- Updating C cache (64 bytes @ 0x08008500) -- Read from C cache (60 bytes @ 0x080084C8) -- Data:  41 F9 4F F4 FA 70 F8 F7 DE F9 08 F1 01 00 00 F0 ...  returns 0x00 (0002ms, 0712ms total)
T0E30 045:176 JLINK_SetBPEx(Addr = 0x080084CA, Type = 0xFFFFFFF2)  returns 0x00000007 (0000ms, 0714ms total)
T0E30 045:176 JLINK_SetBPEx(Addr = 0x080084B8, Type = 0xFFFFFFF2)  returns 0x00000008 (0000ms, 0714ms total)
T0E30 045:176 JLINK_Go() -- CPU_WriteMem(4 bytes @ 0xE0002008) -- CPU_WriteMem(4 bytes @ 0xE000200C) -- CPU_WriteMem(4 bytes @ 0xE0002010) -- CPU_WriteMem(4 bytes @ 0xE0002014) -- CPU_WriteMem(4 bytes @ 0xE0002018) -- CPU_WriteMem(4 bytes @ 0xE000201C) (0007ms, 0714ms total)
T0E30 045:284 JLINK_IsHalted()  returns TRUE (0009ms, 0721ms total)
T0E30 045:294 JLINK_Halt()  returns 0x00 (0000ms, 0721ms total)
T0E30 045:294 JLINK_IsHalted()  returns TRUE (0000ms, 0721ms total)
T0E30 045:294 JLINK_IsHalted()  returns TRUE (0000ms, 0721ms total)
T0E30 045:294 JLINK_IsHalted()  returns TRUE (0000ms, 0721ms total)
T0E30 045:294 JLINK_ReadReg(R15)  returns 0x080084CA (0000ms, 0721ms total)
T0E30 045:294 JLINK_ReadReg(XPSR)  returns 0x61000000 (0000ms, 0721ms total)
T0E30 045:294 JLINK_ClrBPEx(BPHandle = 0x00000007)  returns 0x00 (0000ms, 0721ms total)
T0E30 045:294 JLINK_ClrBPEx(BPHandle = 0x00000008)  returns 0x00 (0000ms, 0721ms total)
T0E30 045:294 JLINK_ReadMemU32(0xE000ED30, 0x0001 Items, ...) -- CPU_ReadMem(4 bytes @ 0xE000ED30) -- Data:  03 00 00 00  returns 0x01 (0001ms, 0721ms total)
T0E30 045:295 JLINK_ReadMemU32(0xE0001028, 0x0001 Items, ...) -- CPU_ReadMem(4 bytes @ 0xE0001028) -- Data:  00 00 00 00  returns 0x01 (0001ms, 0722ms total)
T0E30 045:296 JLINK_ReadMemU32(0xE0001038, 0x0001 Items, ...) -- CPU_ReadMem(4 bytes @ 0xE0001038) -- Data:  00 02 00 00  returns 0x01 (0001ms, 0723ms total)
T0E30 045:297 JLINK_ReadMemU32(0xE0001048, 0x0001 Items, ...) -- CPU_ReadMem(4 bytes @ 0xE0001048) -- Data:  00 00 00 00  returns 0x01 (0001ms, 0724ms total)
T0E30 045:298 JLINK_ReadMemU32(0xE0001058, 0x0001 Items, ...) -- CPU_ReadMem(4 bytes @ 0xE0001058) -- Data:  00 00 00 00  returns 0x01 (0000ms, 0725ms total)
T0E30 045:298 JLINK_ReadReg(R0)  returns 0x00000000 (0000ms, 0725ms total)
